
**** 10/07/20 14:16:07 ************** PSpice Lite (Mar 2000) *****************

 ** Profile: "SCHEMATIC1-MESH"  [ D:\ae\eadtest-schematic1-mesh.sim ] 


 ****     CIRCUIT DESCRIPTION


******************************************************************************




** Creating circuit file "eadtest-schematic1-mesh.sim.cir" 
** WARNING: THIS AUTOMATICALLY GENERATED FILE MAY BE OVERWRITTEN BY SUBSEQUENT SIMULATIONS

*Libraries: 
* Local Libraries :
* From [PSPICE NETLIST] section of d:\PSpice\PSpice.ini file:
.lib "nom.lib" 

*Analysis directives: 
.PROBE V(*) I(*) W(*) D(*) NOISE(*) 
.INC ".\eadtest-SCHEMATIC1.net" 



**** INCLUDING eadtest-SCHEMATIC1.net ****
* source EADTEST
R_R4         N07911 N08238  2  
R_R5         0 N08238  1m  
E_E1         N07911 N07881 N07881 0 2
I_I1         0 N07881 DC 5Adc  
R_R1         0 N07881  4  
R_R2         N07911 N07881  2  
R_R3         N07911 0  6  

**** RESUMING eadtest-schematic1-mesh.sim.cir ****
.END

**** 10/07/20 14:16:07 ************** PSpice Lite (Mar 2000) *****************

 ** Profile: "SCHEMATIC1-MESH"  [ D:\ae\eadtest-schematic1-mesh.sim ] 


 ****     SMALL SIGNAL BIAS SOLUTION       TEMPERATURE =   27.000 DEG C


******************************************************************************



 NODE   VOLTAGE     NODE   VOLTAGE     NODE   VOLTAGE     NODE   VOLTAGE


(N07881)    2.2230 (N07911)    6.6689 (N08238)     .0033 




    VOLTAGE SOURCE CURRENTS
    NAME         CURRENT


    TOTAL POWER DISSIPATION   0.00E+00  WATTS



          JOB CONCLUDED

          TOTAL JOB TIME             .16
